
T132C 000:065 SEGGER J-Link V4.68a Log File (0000ms, 0065ms total)
T132C 000:065 DLL Compiled: Apr 12 2013 13:26:50 (0000ms, 0065ms total)
T132C 000:065 Logging started @ 2016-09-29 10:24 (0000ms, 0065ms total)
T132C 000:065 JLINK_SetWarnOutHandler(...) (0000ms, 0065ms total)
T132C 000:065 JLINK_OpenEx(...)
Firmware: J-Link ARM V8 compiled Nov 28 2014 13:44:46
Hardware: V8.00
S/N: 304427288
Feature(s): RDI,FlashDL,FlashBP,JFlash,GDBFULL  returns O.K. (0010ms, 0075ms total)
T132C 000:075 JLINK_SetErrorOutHandler(...) (0000ms, 0075ms total)
T132C 000:075 JLINK_ExecCommand("ProjectFile = "C:\Users\Administrator\Desktop\GSM³ÌÐò2016.9.23-1517\Project\RVMDK£¨uv4£©\JLinkSettings.ini"", ...)  returns 0x00 (0000ms, 0075ms total)
T132C 000:077 JLINK_ExecCommand("Device = STM32F103RC", ...)
                JLINK_AddMirrorAreaEx(Addr = 0x00000000, Size = 0x00000000) (0000ms, 0000ms total)
              Device "STM32F103RC" selected (256 KB flash, 48 KB RAM).  returns 0x00 (0001ms, 0076ms total)
T132C 000:078 JLINK_ExecCommand("DisableConnectionTimeout", ...)  returns 0x00 (0000ms, 0076ms total)
T132C 000:078 JLINK_GetHardwareVersion()  returns 0x13880 (0000ms, 0076ms total)
T132C 000:078 JLINK_GetDLLVersion()  returns 46801 (0001ms, 0077ms total)
T132C 000:079 JLINK_GetFirmwareString(...) (0000ms, 0077ms total)
T132C 000:082 JLINK_GetDLLVersion()  returns 46801 (0000ms, 0077ms total)
T132C 000:082 JLINK_GetCompileDateTime() (0000ms, 0077ms total)
T132C 000:086 JLINK_GetFirmwareString(...) (0000ms, 0077ms total)
T132C 000:089 JLINK_GetHardwareVersion()  returns 0x13880 (0000ms, 0077ms total)
T132C 000:096 JLINK_TIF_Select(JLINKARM_TIF_SWD)  returns 0x00 (0002ms, 0079ms total)
T132C 000:098 JLINK_SetSpeed(500) (0001ms, 0080ms total)
T132C 000:099 JLINK_GetId() >0x108 TIF>Found SWD-DP with ID 0x1BA01477 >0x0D TIF> >0x28 TIF> >0x0D TIF> >0x28 TIF> >0x0D TIF> >0x21 TIF> >0x0D TIF> >0x28 TIF> >0x0D TIF> >0x28 TIF> >0x0D TIF> >0x28 TIF> >0x0D TIF> >0x21 TIF> >0x0D TIF> >0x21 TIF> >0x0D TIF> >0x28 TIF> >0x0D TIF> >0x21 TIF> >0x0D TIF> >0x21 TIF> >0x0D TIF> >0x28 TIF> >0x0D TIF> >0x28 TIF> >0x108 TIF>Found SWD-DP with ID 0x1BA01477 >0x0D TIF> >0x21 TIF> >0x0D TIF> >0x28 TIF> >0x0D TIF> >0x28 TIF> >0x0D TIF> >0x21 TIF> >0x0D TIF> >0x21 TIF>
 >0x0D TIF> >0x28 TIF> >0x0D TIF> >0x21 TIF> >0x0D TIF> >0x21 TIF> >0x0D TIF> >0x21 TIF> >0x0D TIF> >0x21 TIF> >0x0D TIF> >0x21 TIF> >0x0D TIF> >0x28 TIF> >0x0D TIF> >0x28 TIF> >0x0D TIF> >0x21 TIF> >0x0D TIF> >0x21 TIF> >0x0D TIF> >0x28 TIF> >0x0D TIF> >0x21 TIF> >0x0D TIF> >0x21 TIF> >0x0D TIF> >0x28 TIF> >0x0D TIF> >0x28 TIF> >0x0D TIF> >0x28 TIF> >0x0D TIF> >0x21 TIF> >0x0D TIF> >0x21 TIF> >0x0D TIF> >0x28 TIF> >0x0D TIF> >0x28 TIF> >0x0D TIF> >0x28 TIF> >0x0D TIF> >0x28 TIF> >0x0D TIF> >0x28 TIF>
 >0x0D TIF> >0x21 TIF> >0x0D TIF> >0x21 TIF> >0x0D TIF> >0x21 TIF>TPIU fitted.ETM fitted. >0x0D TIF> >0x28 TIF> >0x0D TIF> >0x21 TIF> >0x0D TIF> >0x21 TIF> >0x0D TIF> >0x28 TIF> >0x0D TIF> >0x21 TIF> >0x0D TIF> >0x21 TIF>FPUnit: 6 code (BP) slots and 2 literal slots >0x0D TIF> >0x28 TIF> >0x0D TIF> >0x21 TIF> >0x0D TIF> >0x21 TIF> >0x0D TIF> >0x28 TIF> >0x0D TIF> >0x28 TIF> >0x0D TIF> >0x28 TIF> >0x0D TIF> >0x21 TIF> >0x0D TIF> >0x21 TIF> >0x0D TIF> >0x28 TIF> >0x0D TIF> >0x21 TIF> >0x0D TIF> >0x21 TIF>
 >0x0D TIF> >0x28 TIF> >0x0D TIF> >0x21 TIF> >0x0D TIF> >0x21 TIF>Found Cortex-M3 r1p1, Little endian. >0x0D TIF> >0x21 TIF>  returns 0x1BA01477 (0081ms, 0161ms total)
T132C 000:180 JLINK_GetDeviceFamily()  returns 3 (0000ms, 0161ms total)
T132C 000:183 JLINK_ReadMem (0xE00FFFF0, 0x0010 Bytes, ...) -- CPU is running -- CPU_ReadMem(16 bytes @ 0xE00FFFF0) -- Data:  0D 00 00 00 10 00 00 00 05 00 00 00 B1 00 00 00  returns 0x00 (0002ms, 0163ms total)
T132C 000:185 JLINK_ReadMem (0xE00FFFD0, 0x0020 Bytes, ...) -- CPU is running -- CPU_ReadMem(32 bytes @ 0xE00FFFD0) -- Data:  00 00 00 00 00 00 00 00 00 00 00 00 00 00 00 00 ...  returns 0x00 (0002ms, 0165ms total)
T132C 000:187 JLINK_ReadMem (0xE00FF000, 0x0018 Bytes, ...) -- CPU is running -- CPU_ReadMem(24 bytes @ 0xE00FF000) -- Data:  03 F0 F0 FF 03 20 F0 FF 03 30 F0 FF 03 10 F0 FF ...  returns 0x00 (0002ms, 0167ms total)
T132C 000:189 JLINK_ReadMemU32(0xE000ED00, 0x0001 Items, ...) -- CPU is running -- CPU_ReadMem(4 bytes @ 0xE000ED00) -- Data:  31 C2 1F 41  returns 0x01 (0001ms, 0168ms total)
T132C 000:190 JLINK_SetResetType(JLINKARM_RESET_TYPE_NORMAL)  returns JLINKARM_RESET_TYPE_NORMAL (0000ms, 0168ms total)
T132C 000:190 JLINK_Reset() -- CPU is running -- CPU_WriteMem(4 bytes @ 0xE000EDF0) -- CPU is running -- CPU_WriteMem(4 bytes @ 0xE000EDFC) >0x35 TIF> -- CPU is running -- CPU_WriteMem(4 bytes @ 0xE000ED0C) -- CPU is running -- CPU_ReadMem(4 bytes @ 0xE000EDF0) -- CPU is running -- CPU_ReadMem(4 bytes @ 0xE000EDF0) -- CPU is running -- CPU_WriteMem(4 bytes @ 0xE000EDF0) -- CPU is running -- CPU_WriteMem(4 bytes @ 0xE000EDFC) -- CPU is running -- CPU_ReadMem(4 bytes @ 0xE000EDF0)
 -- CPU_WriteMem(4 bytes @ 0xE0002000) (0027ms, 0195ms total)
T132C 000:217 JLINK_Halt()  returns 0x00 (0000ms, 0195ms total)
T132C 000:217 JLINK_IsHalted()  returns TRUE (0000ms, 0195ms total)
T132C 000:217 JLINK_ReadMemU32(0xE000EDF0, 0x0001 Items, ...) -- CPU_ReadMem(4 bytes @ 0xE000EDF0) -- Data:  03 00 03 00  returns 0x01 (0002ms, 0197ms total)
T132C 000:219 JLINK_WriteU32(0xE000EDF0, 0xA05F0003) -- CPU_WriteMem(4 bytes @ 0xE000EDF0)  returns 0x00 (0001ms, 0198ms total)
T132C 000:220 JLINK_WriteU32(0xE000EDFC, 0x01000000) -- CPU_WriteMem(4 bytes @ 0xE000EDFC)  returns 0x00 (0001ms, 0199ms total)
T132C 000:231 JLINK_GetHWStatus(...)  returns 0x00 (0001ms, 0200ms total)
T132C 000:239 JLINK_GetNumBPUnits(Type = 0xFFFFFF00)  returns 0x06 (0000ms, 0200ms total)
T132C 000:239 JLINK_GetNumBPUnits(Type = 0xF0)  returns 0x2000 (0000ms, 0200ms total)
T132C 000:239 JLINK_GetNumWPUnits()  returns 0x04 (0000ms, 0200ms total)
T132C 000:247 JLINK_GetSpeed()  returns 0x1F4 (0000ms, 0200ms total)
T132C 000:252 JLINK_ReadMemU32(0xE000E004, 0x0001 Items, ...) -- CPU_ReadMem(4 bytes @ 0xE000E004) -- Data:  01 00 00 00  returns 0x01 (0001ms, 0201ms total)
T132C 000:253 JLINK_ReadMemU32(0xE000E004, 0x0001 Items, ...) -- CPU_ReadMem(4 bytes @ 0xE000E004) -- Data:  01 00 00 00  returns 0x01 (0001ms, 0202ms total)
T132C 000:254 JLINK_WriteMem(0xE0001000, 0x001C Bytes, ...) -- Data:  01 00 00 00 00 00 00 00 00 00 00 00 00 00 00 00 ... -- CPU_WriteMem(28 bytes @ 0xE0001000)  returns 0x1C (0002ms, 0204ms total)
T132C 000:256 JLINK_ReadMem (0xE0001000, 0x001C Bytes, ...) -- CPU_ReadMem(28 bytes @ 0xE0001000) -- Data:  01 00 00 40 00 00 00 00 00 00 00 00 00 00 00 00 ...  returns 0x00 (0002ms, 0206ms total)
T132C 000:258 JLINK_Halt()  returns 0x00 (0000ms, 0206ms total)
T132C 000:258 JLINK_IsHalted()  returns TRUE (0000ms, 0206ms total)
T132C 000:261 JLINK_WriteMem(0x20000000, 0x0164 Bytes, ...) -- Data:  00 BE 0A E0 0D 78 2D 06 68 40 08 24 40 00 00 D3 ... -- CPU_WriteMem(356 bytes @ 0x20000000)  returns 0x164 (0010ms, 0216ms total)
T132C 000:272 JLINK_WriteReg(R0, 0x08000000)  returns 0x00 (0000ms, 0216ms total)
T132C 000:272 JLINK_WriteReg(R1, 0x007A1200)  returns 0x00 (0000ms, 0216ms total)
T132C 000:272 JLINK_WriteReg(R2, 0x00000001)  returns 0x00 (0000ms, 0216ms total)
T132C 000:272 JLINK_WriteReg(R3, 0x00000000)  returns 0x00 (0000ms, 0216ms total)
T132C 000:272 JLINK_WriteReg(R4, 0x00000000)  returns 0x00 (0000ms, 0216ms total)
T132C 000:272 JLINK_WriteReg(R5, 0x00000000)  returns 0x00 (0000ms, 0216ms total)
T132C 000:272 JLINK_WriteReg(R6, 0x00000000)  returns 0x00 (0000ms, 0216ms total)
T132C 000:272 JLINK_WriteReg(R7, 0x00000000)  returns 0x00 (0000ms, 0216ms total)
T132C 000:272 JLINK_WriteReg(R8, 0x00000000)  returns 0x00 (0000ms, 0216ms total)
T132C 000:272 JLINK_WriteReg(R9, 0x20000160)  returns 0x00 (0000ms, 0216ms total)
T132C 000:272 JLINK_WriteReg(R10, 0x00000000)  returns 0x00 (0000ms, 0216ms total)
T132C 000:272 JLINK_WriteReg(R11, 0x00000000)  returns 0x00 (0000ms, 0216ms total)
T132C 000:272 JLINK_WriteReg(R12, 0x00000000)  returns 0x00 (0000ms, 0216ms total)
T132C 000:272 JLINK_WriteReg(R13, 0x20000800)  returns 0x00 (0000ms, 0216ms total)
T132C 000:272 JLINK_WriteReg(R14, 0x20000001)  returns 0x00 (0000ms, 0216ms total)
T132C 000:272 JLINK_WriteReg(R15, 0x20000038)  returns 0x00 (0000ms, 0216ms total)
T132C 000:272 JLINK_WriteReg(XPSR, 0x01000000)  returns 0x00 (0000ms, 0216ms total)
T132C 000:272 JLINK_WriteReg(MSP, 0x20000800)  returns 0x00 (0000ms, 0216ms total)
T132C 000:272 JLINK_WriteReg(PSP, 0x20000800)  returns 0x00 (0000ms, 0216ms total)
T132C 000:272 JLINK_WriteReg(CFBP, 0x00000000)  returns 0x00 (0000ms, 0216ms total)
T132C 000:272 JLINK_SetBPEx(Addr = 0x20000000, Type = 0xFFFFFFF2) -- CPU_ReadMem(2 bytes @ 0x20000000)  returns 0x00000001 (0001ms, 0217ms total)
T132C 000:273 JLINK_Go() -- CPU_WriteMem(2 bytes @ 0x20000000) -- CPU_WriteMem(4 bytes @ 0xE0002008) -- CPU_WriteMem(4 bytes @ 0xE000200C) -- CPU_WriteMem(4 bytes @ 0xE0002010) -- CPU_WriteMem(4 bytes @ 0xE0002014) -- CPU_WriteMem(4 bytes @ 0xE0002018) -- CPU_WriteMem(4 bytes @ 0xE000201C) (0016ms, 0233ms total)
T132C 000:289 JLINK_IsHalted() -- CPU_ReadMem(2 bytes @ 0x20000000)  returns TRUE (0010ms, 0243ms total)
T132C 000:299 JLINK_ReadReg(R15)  returns 0x20000000 (0000ms, 0233ms total)
T132C 000:299 JLINK_ClrBPEx(BPHandle = 0x00000001)  returns 0x00 (0000ms, 0233ms total)
T132C 000:299 JLINK_ReadReg(R0)  returns 0x00000000 (0000ms, 0233ms total)
T132C 000:299 JLINK_WriteReg(R0, 0x08000000)  returns 0x00 (0000ms, 0233ms total)
T132C 000:299 JLINK_WriteReg(R1, 0x007A1200)  returns 0x00 (0000ms, 0233ms total)
T132C 000:299 JLINK_WriteReg(R2, 0x00000001)  returns 0x00 (0001ms, 0234ms total)
T132C 000:300 JLINK_WriteReg(R3, 0x00000000)  returns 0x00 (0000ms, 0234ms total)
T132C 000:300 JLINK_WriteReg(R4, 0x00000000)  returns 0x00 (0000ms, 0234ms total)
T132C 000:300 JLINK_WriteReg(R5, 0x00000000)  returns 0x00 (0000ms, 0234ms total)
T132C 000:300 JLINK_WriteReg(R6, 0x00000000)  returns 0x00 (0000ms, 0234ms total)
T132C 000:300 JLINK_WriteReg(R7, 0x00000000)  returns 0x00 (0000ms, 0234ms total)
T132C 000:300 JLINK_WriteReg(R8, 0x00000000)  returns 0x00 (0000ms, 0234ms total)
T132C 000:300 JLINK_WriteReg(R9, 0x20000160)  returns 0x00 (0000ms, 0234ms total)
T132C 000:300 JLINK_WriteReg(R10, 0x00000000)  returns 0x00 (0000ms, 0234ms total)
T132C 000:300 JLINK_WriteReg(R11, 0x00000000)  returns 0x00 (0000ms, 0234ms total)
T132C 000:300 JLINK_WriteReg(R12, 0x00000000)  returns 0x00 (0000ms, 0234ms total)
T132C 000:300 JLINK_WriteReg(R13, 0x20000800)  returns 0x00 (0000ms, 0234ms total)
T132C 000:300 JLINK_WriteReg(R14, 0x20000001)  returns 0x00 (0000ms, 0234ms total)
T132C 000:300 JLINK_WriteReg(R15, 0x2000007C)  returns 0x00 (0000ms, 0234ms total)
T132C 000:300 JLINK_WriteReg(XPSR, 0x01000000)  returns 0x00 (0000ms, 0234ms total)
T132C 000:300 JLINK_WriteReg(MSP, 0x20000800)  returns 0x00 (0000ms, 0234ms total)
T132C 000:300 JLINK_WriteReg(PSP, 0x20000800)  returns 0x00 (0000ms, 0234ms total)
T132C 000:300 JLINK_WriteReg(CFBP, 0x00000000)  returns 0x00 (0000ms, 0234ms total)
T132C 000:300 JLINK_SetBPEx(Addr = 0x20000000, Type = 0xFFFFFFF2)  returns 0x00000002 (0000ms, 0234ms total)
T132C 000:300 JLINK_Go() (0004ms, 0238ms total)
T132C 000:304 JLINK_IsHalted()  returns FALSE (0001ms, 0239ms total)
T132C 000:377 JLINK_IsHalted() -- CPU_ReadMem(2 bytes @ 0x20000000)  returns TRUE (0009ms, 0247ms total)
T132C 000:386 JLINK_ReadReg(R15)  returns 0x20000000 (0000ms, 0238ms total)
T132C 000:386 JLINK_ClrBPEx(BPHandle = 0x00000002)  returns 0x00 (0000ms, 0238ms total)
T132C 000:386 JLINK_ReadReg(R0)  returns 0x00000000 (0000ms, 0238ms total)
T132C 000:436 JLINK_WriteReg(R0, 0x00000001)  returns 0x00 (0000ms, 0238ms total)
T132C 000:436 JLINK_WriteReg(R1, 0x007A1200)  returns 0x00 (0000ms, 0238ms total)
T132C 000:436 JLINK_WriteReg(R2, 0x00000001)  returns 0x00 (0000ms, 0238ms total)
T132C 000:436 JLINK_WriteReg(R3, 0x00000000)  returns 0x00 (0000ms, 0238ms total)
T132C 000:436 JLINK_WriteReg(R4, 0x00000000)  returns 0x00 (0000ms, 0238ms total)
T132C 000:436 JLINK_WriteReg(R5, 0x00000000)  returns 0x00 (0000ms, 0238ms total)
T132C 000:436 JLINK_WriteReg(R6, 0x00000000)  returns 0x00 (0000ms, 0238ms total)
T132C 000:436 JLINK_WriteReg(R7, 0x00000000)  returns 0x00 (0000ms, 0238ms total)
T132C 000:437 JLINK_WriteReg(R8, 0x00000000)  returns 0x00 (0000ms, 0238ms total)
T132C 000:437 JLINK_WriteReg(R9, 0x20000160)  returns 0x00 (0000ms, 0238ms total)
T132C 000:437 JLINK_WriteReg(R10, 0x00000000)  returns 0x00 (0000ms, 0238ms total)
T132C 000:437 JLINK_WriteReg(R11, 0x00000000)  returns 0x00 (0000ms, 0238ms total)
T132C 000:437 JLINK_WriteReg(R12, 0x00000000)  returns 0x00 (0000ms, 0238ms total)
T132C 000:437 JLINK_WriteReg(R13, 0x20000800)  returns 0x00 (0000ms, 0238ms total)
T132C 000:437 JLINK_WriteReg(R14, 0x20000001)  returns 0x00 (0000ms, 0238ms total)
T132C 000:437 JLINK_WriteReg(R15, 0x2000006A)  returns 0x00 (0000ms, 0238ms total)
T132C 000:437 JLINK_WriteReg(XPSR, 0x01000000)  returns 0x00 (0000ms, 0238ms total)
T132C 000:437 JLINK_WriteReg(MSP, 0x20000800)  returns 0x00 (0000ms, 0238ms total)
T132C 000:437 JLINK_WriteReg(PSP, 0x20000800)  returns 0x00 (0000ms, 0238ms total)
T132C 000:437 JLINK_WriteReg(CFBP, 0x00000000)  returns 0x00 (0000ms, 0238ms total)
T132C 000:437 JLINK_SetBPEx(Addr = 0x20000000, Type = 0xFFFFFFF2)  returns 0x00000003 (0000ms, 0238ms total)
T132C 000:437 JLINK_Go() (0004ms, 0242ms total)
T132C 000:441 JLINK_IsHalted() -- CPU_ReadMem(2 bytes @ 0x20000000)  returns TRUE (0010ms, 0252ms total)
T132C 000:451 JLINK_ReadReg(R15)  returns 0x20000000 (0000ms, 0242ms total)
T132C 000:451 JLINK_ClrBPEx(BPHandle = 0x00000003)  returns 0x00 (0000ms, 0242ms total)
T132C 000:451 JLINK_ReadReg(R0)  returns 0x00000000 (0000ms, 0242ms total)
T132C 000:455 JLINK_WriteMem(0x20000000, 0x0164 Bytes, ...) -- Data:  00 BE 0A E0 0D 78 2D 06 68 40 08 24 40 00 00 D3 ... -- CPU_WriteMem(356 bytes @ 0x20000000)  returns 0x164 (0011ms, 0253ms total)
T132C 000:466 JLINK_WriteReg(R0, 0x08000000)  returns 0x00 (0000ms, 0253ms total)
T132C 000:466 JLINK_WriteReg(R1, 0x007A1200)  returns 0x00 (0000ms, 0253ms total)
T132C 000:466 JLINK_WriteReg(R2, 0x00000002)  returns 0x00 (0000ms, 0253ms total)
T132C 000:466 JLINK_WriteReg(R3, 0x00000000)  returns 0x00 (0000ms, 0253ms total)
T132C 000:466 JLINK_WriteReg(R4, 0x00000000)  returns 0x00 (0000ms, 0253ms total)
T132C 000:466 JLINK_WriteReg(R5, 0x00000000)  returns 0x00 (0000ms, 0253ms total)
T132C 000:466 JLINK_WriteReg(R6, 0x00000000)  returns 0x00 (0000ms, 0253ms total)
T132C 000:466 JLINK_WriteReg(R7, 0x00000000)  returns 0x00 (0000ms, 0253ms total)
T132C 000:466 JLINK_WriteReg(R8, 0x00000000)  returns 0x00 (0000ms, 0253ms total)
T132C 000:466 JLINK_WriteReg(R9, 0x20000160)  returns 0x00 (0000ms, 0253ms total)
T132C 000:466 JLINK_WriteReg(R10, 0x00000000)  returns 0x00 (0000ms, 0253ms total)
T132C 000:466 JLINK_WriteReg(R11, 0x00000000)  returns 0x00 (0000ms, 0253ms total)
T132C 000:466 JLINK_WriteReg(R12, 0x00000000)  returns 0x00 (0000ms, 0253ms total)
T132C 000:466 JLINK_WriteReg(R13, 0x20000800)  returns 0x00 (0000ms, 0253ms total)
T132C 000:466 JLINK_WriteReg(R14, 0x20000001)  returns 0x00 (0000ms, 0253ms total)
T132C 000:466 JLINK_WriteReg(R15, 0x20000038)  returns 0x00 (0000ms, 0253ms total)
T132C 000:466 JLINK_WriteReg(XPSR, 0x01000000)  returns 0x00 (0000ms, 0253ms total)
T132C 000:466 JLINK_WriteReg(MSP, 0x20000800)  returns 0x00 (0000ms, 0253ms total)
T132C 000:466 JLINK_WriteReg(PSP, 0x20000800)  returns 0x00 (0000ms, 0253ms total)
T132C 000:466 JLINK_WriteReg(CFBP, 0x00000000)  returns 0x00 (0000ms, 0253ms total)
T132C 000:466 JLINK_SetBPEx(Addr = 0x20000000, Type = 0xFFFFFFF2) -- CPU_ReadMem(2 bytes @ 0x20000000)  returns 0x00000004 (0002ms, 0255ms total)
T132C 000:468 JLINK_Go() -- CPU_WriteMem(2 bytes @ 0x20000000) (0004ms, 0259ms total)
T132C 000:472 JLINK_IsHalted() -- CPU_ReadMem(2 bytes @ 0x20000000)  returns TRUE (0010ms, 0269ms total)
T132C 000:482 JLINK_ReadReg(R15)  returns 0x20000000 (0000ms, 0259ms total)
T132C 000:482 JLINK_ClrBPEx(BPHandle = 0x00000004)  returns 0x00 (0000ms, 0259ms total)
T132C 000:482 JLINK_ReadReg(R0)  returns 0x00000000 (0000ms, 0259ms total)
T132C 000:482 JLINK_WriteMem(0x20000164, 0x0400 Bytes, ...) -- Data:  28 18 00 20 45 01 00 08 C5 39 00 08 49 38 00 08 ... -- CPU_WriteMem(1024 bytes @ 0x20000164)  returns 0x400 (0028ms, 0287ms total)
T132C 000:510 JLINK_WriteReg(R0, 0x08000000)  returns 0x00 (0000ms, 0287ms total)
T132C 000:510 JLINK_WriteReg(R1, 0x00000400)  returns 0x00 (0000ms, 0287ms total)
T132C 000:510 JLINK_WriteReg(R2, 0x20000164)  returns 0x00 (0000ms, 0287ms total)
T132C 000:510 JLINK_WriteReg(R3, 0x00000000)  returns 0x00 (0000ms, 0287ms total)
T132C 000:510 JLINK_WriteReg(R4, 0x00000000)  returns 0x00 (0001ms, 0288ms total)
T132C 000:511 JLINK_WriteReg(R5, 0x00000000)  returns 0x00 (0000ms, 0288ms total)
T132C 000:511 JLINK_WriteReg(R6, 0x00000000)  returns 0x00 (0000ms, 0288ms total)
T132C 000:511 JLINK_WriteReg(R7, 0x00000000)  returns 0x00 (0000ms, 0288ms total)
T132C 000:511 JLINK_WriteReg(R8, 0x00000000)  returns 0x00 (0000ms, 0288ms total)
T132C 000:511 JLINK_WriteReg(R9, 0x20000160)  returns 0x00 (0000ms, 0288ms total)
T132C 000:511 JLINK_WriteReg(R10, 0x00000000)  returns 0x00 (0000ms, 0288ms total)
T132C 000:511 JLINK_WriteReg(R11, 0x00000000)  returns 0x00 (0000ms, 0288ms total)
T132C 000:511 JLINK_WriteReg(R12, 0x00000000)  returns 0x00 (0000ms, 0288ms total)
T132C 000:511 JLINK_WriteReg(R13, 0x20000800)  returns 0x00 (0000ms, 0288ms total)
T132C 000:511 JLINK_WriteReg(R14, 0x20000001)  returns 0x00 (0000ms, 0288ms total)
T132C 000:511 JLINK_WriteReg(R15, 0x200000F4)  returns 0x00 (0000ms, 0288ms total)
T132C 000:511 JLINK_WriteReg(XPSR, 0x01000000)  returns 0x00 (0000ms, 0288ms total)
T132C 000:511 JLINK_WriteReg(MSP, 0x20000800)  returns 0x00 (0000ms, 0288ms total)
T132C 000:511 JLINK_WriteReg(PSP, 0x20000800)  returns 0x00 (0000ms, 0288ms total)
T132C 000:511 JLINK_WriteReg(CFBP, 0x00000000)  returns 0x00 (0000ms, 0288ms total)
T132C 000:511 JLINK_SetBPEx(Addr = 0x20000000, Type = 0xFFFFFFF2)  returns 0x00000005 (0000ms, 0288ms total)
T132C 000:511 JLINK_Go() (0005ms, 0293ms total)
T132C 000:516 JLINK_IsHalted()  returns FALSE (0001ms, 0294ms total)
T132C 000:591 JLINK_IsHalted() -- CPU_ReadMem(2 bytes @ 0x20000000)  returns TRUE (0009ms, 0302ms total)
T132C 000:600 JLINK_ReadReg(R15)  returns 0x20000000 (0000ms, 0293ms total)
T132C 000:600 JLINK_ClrBPEx(BPHandle = 0x00000005)  returns 0x00 (0000ms, 0293ms total)
T132C 000:600 JLINK_ReadReg(R0)  returns 0x00000000 (0000ms, 0293ms total)
T132C 000:600 JLINK_WriteMem(0x20000164, 0x0400 Bytes, ...) -- Data:  87 EA 11 52 84 EA E7 73 1A 43 3B D0 00 9A 3A B3 ... -- CPU_WriteMem(1024 bytes @ 0x20000164)  returns 0x400 (0028ms, 0321ms total)
T132C 000:628 JLINK_WriteReg(R0, 0x08000400)  returns 0x00 (0000ms, 0321ms total)
T132C 000:628 JLINK_WriteReg(R1, 0x00000400)  returns 0x00 (0000ms, 0321ms total)
T132C 000:628 JLINK_WriteReg(R2, 0x20000164)  returns 0x00 (0000ms, 0321ms total)
T132C 000:628 JLINK_WriteReg(R3, 0x00000000)  returns 0x00 (0000ms, 0321ms total)
T132C 000:628 JLINK_WriteReg(R4, 0x00000000)  returns 0x00 (0000ms, 0321ms total)
T132C 000:628 JLINK_WriteReg(R5, 0x00000000)  returns 0x00 (0000ms, 0321ms total)
T132C 000:628 JLINK_WriteReg(R6, 0x00000000)  returns 0x00 (0001ms, 0322ms total)
T132C 000:629 JLINK_WriteReg(R7, 0x00000000)  returns 0x00 (0000ms, 0322ms total)
T132C 000:629 JLINK_WriteReg(R8, 0x00000000)  returns 0x00 (0000ms, 0322ms total)
T132C 000:629 JLINK_WriteReg(R9, 0x20000160)  returns 0x00 (0000ms, 0322ms total)
T132C 000:629 JLINK_WriteReg(R10, 0x00000000)  returns 0x00 (0000ms, 0322ms total)
T132C 000:629 JLINK_WriteReg(R11, 0x00000000)  returns 0x00 (0000ms, 0322ms total)
T132C 000:629 JLINK_WriteReg(R12, 0x00000000)  returns 0x00 (0000ms, 0322ms total)
T132C 000:629 JLINK_WriteReg(R13, 0x20000800)  returns 0x00 (0000ms, 0322ms total)
T132C 000:629 JLINK_WriteReg(R14, 0x20000001)  returns 0x00 (0000ms, 0322ms total)
T132C 000:629 JLINK_WriteReg(R15, 0x200000F4)  returns 0x00 (0000ms, 0322ms total)
T132C 000:629 JLINK_WriteReg(XPSR, 0x01000000)  returns 0x00 (0000ms, 0322ms total)
T132C 000:629 JLINK_WriteReg(MSP, 0x20000800)  returns 0x00 (0000ms, 0322ms total)
T132C 000:629 JLINK_WriteReg(PSP, 0x20000800)  returns 0x00 (0000ms, 0322ms total)
T132C 000:629 JLINK_WriteReg(CFBP, 0x00000000)  returns 0x00 (0000ms, 0322ms total)
T132C 000:629 JLINK_SetBPEx(Addr = 0x20000000, Type = 0xFFFFFFF2)  returns 0x00000006 (0000ms, 0322ms total)
T132C 000:629 JLINK_Go() (0004ms, 0326ms total)
T132C 000:633 JLINK_IsHalted()  returns FALSE (0002ms, 0328ms total)
T132C 000:699 JLINK_IsHalted() -- CPU_ReadMem(2 bytes @ 0x20000000)  returns TRUE (0009ms, 0335ms total)
T132C 000:708 JLINK_ReadReg(R15)  returns 0x20000000 (0000ms, 0326ms total)
T132C 000:708 JLINK_ClrBPEx(BPHandle = 0x00000006)  returns 0x00 (0000ms, 0326ms total)
T132C 000:708 JLINK_ReadReg(R0)  returns 0x00000000 (0000ms, 0326ms total)
T132C 000:709 JLINK_WriteMem(0x20000164, 0x0400 Bytes, ...) -- Data:  13 01 00 2A 02 DC 30 BC 00 20 70 47 44 0F 44 EA ... -- CPU_WriteMem(1024 bytes @ 0x20000164)  returns 0x400 (0027ms, 0353ms total)
T132C 000:736 JLINK_WriteReg(R0, 0x08000800)  returns 0x00 (0000ms, 0353ms total)
T132C 000:736 JLINK_WriteReg(R1, 0x00000400)  returns 0x00 (0000ms, 0353ms total)
T132C 000:736 JLINK_WriteReg(R2, 0x20000164)  returns 0x00 (0000ms, 0353ms total)
T132C 000:736 JLINK_WriteReg(R3, 0x00000000)  returns 0x00 (0000ms, 0353ms total)
T132C 000:736 JLINK_WriteReg(R4, 0x00000000)  returns 0x00 (0000ms, 0353ms total)
T132C 000:736 JLINK_WriteReg(R5, 0x00000000)  returns 0x00 (0000ms, 0353ms total)
T132C 000:736 JLINK_WriteReg(R6, 0x00000000)  returns 0x00 (0000ms, 0353ms total)
T132C 000:736 JLINK_WriteReg(R7, 0x00000000)  returns 0x00 (0001ms, 0354ms total)
T132C 000:737 JLINK_WriteReg(R8, 0x00000000)  returns 0x00 (0000ms, 0354ms total)
T132C 000:737 JLINK_WriteReg(R9, 0x20000160)  returns 0x00 (0000ms, 0354ms total)
T132C 000:737 JLINK_WriteReg(R10, 0x00000000)  returns 0x00 (0000ms, 0354ms total)
T132C 000:737 JLINK_WriteReg(R11, 0x00000000)  returns 0x00 (0000ms, 0354ms total)
T132C 000:737 JLINK_WriteReg(R12, 0x00000000)  returns 0x00 (0000ms, 0354ms total)
T132C 000:737 JLINK_WriteReg(R13, 0x20000800)  returns 0x00 (0000ms, 0354ms total)
T132C 000:737 JLINK_WriteReg(R14, 0x20000001)  returns 0x00 (0000ms, 0354ms total)
T132C 000:737 JLINK_WriteReg(R15, 0x200000F4)  returns 0x00 (0000ms, 0354ms total)
T132C 000:737 JLINK_WriteReg(XPSR, 0x01000000)  returns 0x00 (0000ms, 0354ms total)
T132C 000:737 JLINK_WriteReg(MSP, 0x20000800)  returns 0x00 (0000ms, 0354ms total)
T132C 000:737 JLINK_WriteReg(PSP, 0x20000800)  returns 0x00 (0000ms, 0354ms total)
T132C 000:737 JLINK_WriteReg(CFBP, 0x00000000)  returns 0x00 (0000ms, 0354ms total)
T132C 000:737 JLINK_SetBPEx(Addr = 0x20000000, Type = 0xFFFFFFF2)  returns 0x00000007 (0000ms, 0354ms total)
T132C 000:737 JLINK_Go() (0003ms, 0357ms total)
T132C 000:741 JLINK_IsHalted()  returns FALSE (0001ms, 0359ms total)
T132C 000:798 JLINK_IsHalted() -- CPU_ReadMem(2 bytes @ 0x20000000)  returns TRUE (0009ms, 0367ms total)
T132C 000:807 JLINK_ReadReg(R15)  returns 0x20000000 (0000ms, 0358ms total)
T132C 000:807 JLINK_ClrBPEx(BPHandle = 0x00000007)  returns 0x00 (0000ms, 0358ms total)
T132C 000:807 JLINK_ReadReg(R0)  returns 0x00000000 (0000ms, 0358ms total)
T132C 000:808 JLINK_WriteMem(0x20000164, 0x0400 Bytes, ...) -- Data:  2C 43 4D 79 44 EA 45 04 20 43 90 60 D0 6A 20 F4 ... -- CPU_WriteMem(1024 bytes @ 0x20000164)  returns 0x400 (0027ms, 0385ms total)
T132C 000:835 JLINK_WriteReg(R0, 0x08000C00)  returns 0x00 (0000ms, 0385ms total)
T132C 000:835 JLINK_WriteReg(R1, 0x00000400)  returns 0x00 (0000ms, 0385ms total)
T132C 000:835 JLINK_WriteReg(R2, 0x20000164)  returns 0x00 (0000ms, 0385ms total)
T132C 000:835 JLINK_WriteReg(R3, 0x00000000)  returns 0x00 (0000ms, 0385ms total)
T132C 000:836 JLINK_WriteReg(R4, 0x00000000)  returns 0x00 (0000ms, 0386ms total)
T132C 000:836 JLINK_WriteReg(R5, 0x00000000)  returns 0x00 (0000ms, 0386ms total)
T132C 000:836 JLINK_WriteReg(R6, 0x00000000)  returns 0x00 (0000ms, 0386ms total)
T132C 000:836 JLINK_WriteReg(R7, 0x00000000)  returns 0x00 (0000ms, 0386ms total)
T132C 000:836 JLINK_WriteReg(R8, 0x00000000)  returns 0x00 (0000ms, 0386ms total)
T132C 000:836 JLINK_WriteReg(R9, 0x20000160)  returns 0x00 (0000ms, 0386ms total)
T132C 000:836 JLINK_WriteReg(R10, 0x00000000)  returns 0x00 (0000ms, 0386ms total)
T132C 000:836 JLINK_WriteReg(R11, 0x00000000)  returns 0x00 (0000ms, 0386ms total)
T132C 000:836 JLINK_WriteReg(R12, 0x00000000)  returns 0x00 (0000ms, 0386ms total)
T132C 000:836 JLINK_WriteReg(R13, 0x20000800)  returns 0x00 (0000ms, 0386ms total)
T132C 000:836 JLINK_WriteReg(R14, 0x20000001)  returns 0x00 (0000ms, 0386ms total)
T132C 000:836 JLINK_WriteReg(R15, 0x200000F4)  returns 0x00 (0000ms, 0386ms total)
T132C 000:836 JLINK_WriteReg(XPSR, 0x01000000)  returns 0x00 (0000ms, 0386ms total)
T132C 000:836 JLINK_WriteReg(MSP, 0x20000800)  returns 0x00 (0000ms, 0386ms total)
T132C 000:836 JLINK_WriteReg(PSP, 0x20000800)  returns 0x00 (0000ms, 0386ms total)
T132C 000:836 JLINK_WriteReg(CFBP, 0x00000000)  returns 0x00 (0000ms, 0386ms total)
T132C 000:836 JLINK_SetBPEx(Addr = 0x20000000, Type = 0xFFFFFFF2)  returns 0x00000008 (0000ms, 0386ms total)
T132C 000:836 JLINK_Go() (0004ms, 0390ms total)
T132C 000:840 JLINK_IsHalted()  returns FALSE (0001ms, 0391ms total)
T132C 000:889 JLINK_IsHalted() -- CPU_ReadMem(2 bytes @ 0x20000000)  returns TRUE (0009ms, 0399ms total)
T132C 000:898 JLINK_ReadReg(R15)  returns 0x20000000 (0000ms, 0390ms total)
T132C 000:898 JLINK_ClrBPEx(BPHandle = 0x00000008)  returns 0x00 (0000ms, 0390ms total)
T132C 000:898 JLINK_ReadReg(R0)  returns 0x00000000 (0000ms, 0390ms total)
T132C 000:898 JLINK_WriteMem(0x20000164, 0x0400 Bytes, ...) -- Data:  C4 00 38 44 00 88 A1 49 09 88 00 EB C1 20 A0 F1 ... -- CPU_WriteMem(1024 bytes @ 0x20000164)  returns 0x400 (0028ms, 0418ms total)
T132C 000:926 JLINK_WriteReg(R0, 0x08001000)  returns 0x00 (0000ms, 0418ms total)
T132C 000:926 JLINK_WriteReg(R1, 0x00000400)  returns 0x00 (0000ms, 0418ms total)
T132C 000:926 JLINK_WriteReg(R2, 0x20000164)  returns 0x00 (0000ms, 0418ms total)
T132C 000:926 JLINK_WriteReg(R3, 0x00000000)  returns 0x00 (0000ms, 0418ms total)
T132C 000:926 JLINK_WriteReg(R4, 0x00000000)  returns 0x00 (0000ms, 0418ms total)
T132C 000:926 JLINK_WriteReg(R5, 0x00000000)  returns 0x00 (0000ms, 0418ms total)
T132C 000:926 JLINK_WriteReg(R6, 0x00000000)  returns 0x00 (0001ms, 0419ms total)
T132C 000:927 JLINK_WriteReg(R7, 0x00000000)  returns 0x00 (0000ms, 0419ms total)
T132C 000:927 JLINK_WriteReg(R8, 0x00000000)  returns 0x00 (0000ms, 0419ms total)
T132C 000:927 JLINK_WriteReg(R9, 0x20000160)  returns 0x00 (0000ms, 0419ms total)
T132C 000:927 JLINK_WriteReg(R10, 0x00000000)  returns 0x00 (0000ms, 0419ms total)
T132C 000:927 JLINK_WriteReg(R11, 0x00000000)  returns 0x00 (0000ms, 0419ms total)
T132C 000:927 JLINK_WriteReg(R12, 0x00000000)  returns 0x00 (0000ms, 0419ms total)
T132C 000:927 JLINK_WriteReg(R13, 0x20000800)  returns 0x00 (0000ms, 0419ms total)
T132C 000:927 JLINK_WriteReg(R14, 0x20000001)  returns 0x00 (0000ms, 0419ms total)
T132C 000:927 JLINK_WriteReg(R15, 0x200000F4)  returns 0x00 (0000ms, 0419ms total)
T132C 000:927 JLINK_WriteReg(XPSR, 0x01000000)  returns 0x00 (0000ms, 0419ms total)
T132C 000:927 JLINK_WriteReg(MSP, 0x20000800)  returns 0x00 (0000ms, 0419ms total)
T132C 000:927 JLINK_WriteReg(PSP, 0x20000800)  returns 0x00 (0000ms, 0419ms total)
T132C 000:927 JLINK_WriteReg(CFBP, 0x00000000)  returns 0x00 (0000ms, 0419ms total)
T132C 000:927 JLINK_SetBPEx(Addr = 0x20000000, Type = 0xFFFFFFF2)  returns 0x00000009 (0000ms, 0419ms total)
T132C 000:927 JLINK_Go() (0004ms, 0423ms total)
T132C 000:931 JLINK_IsHalted()  returns FALSE (0001ms, 0424ms total)
T132C 000:985 JLINK_IsHalted() -- CPU_ReadMem(2 bytes @ 0x20000000)  returns TRUE (0009ms, 0432ms total)
T132C 000:994 JLINK_ReadReg(R15)  returns 0x20000000 (0000ms, 0423ms total)
T132C 000:994 JLINK_ClrBPEx(BPHandle = 0x00000009)  returns 0x00 (0000ms, 0423ms total)
T132C 000:994 JLINK_ReadReg(R0)  returns 0x00000000 (0000ms, 0423ms total)
T132C 000:995 JLINK_WriteMem(0x20000164, 0x0400 Bytes, ...) -- Data:  FF 74 18 E0 28 78 02 F0 1D FF 84 EA 00 24 00 27 ... -- CPU_WriteMem(1024 bytes @ 0x20000164)  returns 0x400 (0028ms, 0451ms total)
T132C 001:023 JLINK_WriteReg(R0, 0x08001400)  returns 0x00 (0000ms, 0451ms total)
T132C 001:023 JLINK_WriteReg(R1, 0x00000400)  returns 0x00 (0000ms, 0451ms total)
T132C 001:023 JLINK_WriteReg(R2, 0x20000164)  returns 0x00 (0000ms, 0451ms total)
T132C 001:023 JLINK_WriteReg(R3, 0x00000000)  returns 0x00 (0000ms, 0451ms total)
T132C 001:023 JLINK_WriteReg(R4, 0x00000000)  returns 0x00 (0000ms, 0451ms total)
T132C 001:023 JLINK_WriteReg(R5, 0x00000000)  returns 0x00 (0000ms, 0451ms total)
T132C 001:023 JLINK_WriteReg(R6, 0x00000000)  returns 0x00 (0000ms, 0451ms total)
T132C 001:023 JLINK_WriteReg(R7, 0x00000000)  returns 0x00 (0000ms, 0451ms total)
T132C 001:023 JLINK_WriteReg(R8, 0x00000000)  returns 0x00 (0000ms, 0451ms total)
T132C 001:023 JLINK_WriteReg(R9, 0x20000160)  returns 0x00 (0000ms, 0451ms total)
T132C 001:023 JLINK_WriteReg(R10, 0x00000000)  returns 0x00 (0001ms, 0452ms total)
T132C 001:024 JLINK_WriteReg(R11, 0x00000000)  returns 0x00 (0000ms, 0452ms total)
T132C 001:024 JLINK_WriteReg(R12, 0x00000000)  returns 0x00 (0000ms, 0452ms total)
T132C 001:024 JLINK_WriteReg(R13, 0x20000800)  returns 0x00 (0000ms, 0452ms total)
T132C 001:024 JLINK_WriteReg(R14, 0x20000001)  returns 0x00 (0000ms, 0452ms total)
T132C 001:024 JLINK_WriteReg(R15, 0x200000F4)  returns 0x00 (0000ms, 0452ms total)
T132C 001:024 JLINK_WriteReg(XPSR, 0x01000000)  returns 0x00 (0000ms, 0452ms total)
T132C 001:024 JLINK_WriteReg(MSP, 0x20000800)  returns 0x00 (0000ms, 0452ms total)
T132C 001:024 JLINK_WriteReg(PSP, 0x20000800)  returns 0x00 (0000ms, 0452ms total)
T132C 001:024 JLINK_WriteReg(CFBP, 0x00000000)  returns 0x00 (0000ms, 0452ms total)
T132C 001:024 JLINK_SetBPEx(Addr = 0x20000000, Type = 0xFFFFFFF2)  returns 0x0000000A (0000ms, 0452ms total)
T132C 001:024 JLINK_Go() (0004ms, 0456ms total)
T132C 001:028 JLINK_IsHalted()  returns FALSE (0001ms, 0457ms total)
T132C 001:099 JLINK_IsHalted() -- CPU_ReadMem(2 bytes @ 0x20000000)  returns TRUE (0009ms, 0465ms total)
T132C 001:108 JLINK_ReadReg(R15)  returns 0x20000000 (0000ms, 0456ms total)
T132C 001:108 JLINK_ClrBPEx(BPHandle = 0x0000000A)  returns 0x00 (0000ms, 0456ms total)
T132C 001:108 JLINK_ReadReg(R0)  returns 0x00000000 (0000ms, 0456ms total)
T132C 001:109 JLINK_WriteMem(0x20000164, 0x0400 Bytes, ...) -- Data:  1E 38 40 5D 39 28 04 DD A6 48 1E 38 40 5D 2E 28 ... -- CPU_WriteMem(1024 bytes @ 0x20000164)  returns 0x400 (0027ms, 0483ms total)
T132C 001:136 JLINK_WriteReg(R0, 0x08001800)  returns 0x00 (0000ms, 0483ms total)
T132C 001:136 JLINK_WriteReg(R1, 0x00000400)  returns 0x00 (0000ms, 0483ms total)
T132C 001:136 JLINK_WriteReg(R2, 0x20000164)  returns 0x00 (0000ms, 0483ms total)
T132C 001:136 JLINK_WriteReg(R3, 0x00000000)  returns 0x00 (0001ms, 0484ms total)
T132C 001:137 JLINK_WriteReg(R4, 0x00000000)  returns 0x00 (0000ms, 0484ms total)
T132C 001:137 JLINK_WriteReg(R5, 0x00000000)  returns 0x00 (0000ms, 0484ms total)
T132C 001:137 JLINK_WriteReg(R6, 0x00000000)  returns 0x00 (0000ms, 0484ms total)
T132C 001:137 JLINK_WriteReg(R7, 0x00000000)  returns 0x00 (0000ms, 0484ms total)
T132C 001:137 JLINK_WriteReg(R8, 0x00000000)  returns 0x00 (0000ms, 0484ms total)
T132C 001:137 JLINK_WriteReg(R9, 0x20000160)  returns 0x00 (0000ms, 0484ms total)
T132C 001:137 JLINK_WriteReg(R10, 0x00000000)  returns 0x00 (0000ms, 0484ms total)
T132C 001:137 JLINK_WriteReg(R11, 0x00000000)  returns 0x00 (0000ms, 0484ms total)
T132C 001:137 JLINK_WriteReg(R12, 0x00000000)  returns 0x00 (0000ms, 0484ms total)
T132C 001:137 JLINK_WriteReg(R13, 0x20000800)  returns 0x00 (0000ms, 0484ms total)
T132C 001:137 JLINK_WriteReg(R14, 0x20000001)  returns 0x00 (0000ms, 0484ms total)
T132C 001:137 JLINK_WriteReg(R15, 0x200000F4)  returns 0x00 (0000ms, 0484ms total)
T132C 001:137 JLINK_WriteReg(XPSR, 0x01000000)  returns 0x00 (0000ms, 0484ms total)
T132C 001:137 JLINK_WriteReg(MSP, 0x20000800)  returns 0x00 (0000ms, 0484ms total)
T132C 001:137 JLINK_WriteReg(PSP, 0x20000800)  returns 0x00 (0000ms, 0484ms total)
T132C 001:137 JLINK_WriteReg(CFBP, 0x00000000)  returns 0x00 (0000ms, 0484ms total)
T132C 001:137 JLINK_SetBPEx(Addr = 0x20000000, Type = 0xFFFFFFF2)  returns 0x0000000B (0000ms, 0484ms total)
T132C 001:137 JLINK_Go() (0004ms, 0488ms total)
T132C 001:141 JLINK_IsHalted()  returns FALSE (0001ms, 0489ms total)
T132C 001:172 JLINK_IsHalted() -- CPU_ReadMem(2 bytes @ 0x20000000)  returns TRUE (0009ms, 0497ms total)
T132C 001:181 JLINK_ReadReg(R15)  returns 0x20000000 (0000ms, 0488ms total)
T132C 001:181 JLINK_ClrBPEx(BPHandle = 0x0000000B)  returns 0x00 (0000ms, 0488ms total)
T132C 001:181 JLINK_ReadReg(R0)  returns 0x00000000 (0000ms, 0488ms total)
T132C 001:182 JLINK_WriteMem(0x20000164, 0x0400 Bytes, ...) -- Data:  30 2E 32 66 0D 0A 00 00 0D 0A 2D 2D 2D 72 65 61 ... -- CPU_WriteMem(1024 bytes @ 0x20000164)  returns 0x400 (0027ms, 0515ms total)
T132C 001:209 JLINK_WriteReg(R0, 0x08001C00)  returns 0x00 (0000ms, 0515ms total)
T132C 001:209 JLINK_WriteReg(R1, 0x00000400)  returns 0x00 (0000ms, 0515ms total)
T132C 001:209 JLINK_WriteReg(R2, 0x20000164)  returns 0x00 (0000ms, 0515ms total)
T132C 001:209 JLINK_WriteReg(R3, 0x00000000)  returns 0x00 (0000ms, 0515ms total)
T132C 001:209 JLINK_WriteReg(R4, 0x00000000)  returns 0x00 (0000ms, 0515ms total)
T132C 001:209 JLINK_WriteReg(R5, 0x00000000)  returns 0x00 (0000ms, 0515ms total)
T132C 001:209 JLINK_WriteReg(R6, 0x00000000)  returns 0x00 (0000ms, 0515ms total)
T132C 001:209 JLINK_WriteReg(R7, 0x00000000)  returns 0x00 (0000ms, 0515ms total)
T132C 001:209 JLINK_WriteReg(R8, 0x00000000)  returns 0x00 (0001ms, 0516ms total)
T132C 001:210 JLINK_WriteReg(R9, 0x20000160)  returns 0x00 (0000ms, 0516ms total)
T132C 001:210 JLINK_WriteReg(R10, 0x00000000)  returns 0x00 (0000ms, 0516ms total)
T132C 001:210 JLINK_WriteReg(R11, 0x00000000)  returns 0x00 (0000ms, 0516ms total)
T132C 001:210 JLINK_WriteReg(R12, 0x00000000)  returns 0x00 (0000ms, 0516ms total)
T132C 001:210 JLINK_WriteReg(R13, 0x20000800)  returns 0x00 (0000ms, 0516ms total)
T132C 001:210 JLINK_WriteReg(R14, 0x20000001)  returns 0x00 (0000ms, 0516ms total)
T132C 001:210 JLINK_WriteReg(R15, 0x200000F4)  returns 0x00 (0000ms, 0516ms total)
T132C 001:210 JLINK_WriteReg(XPSR, 0x01000000)  returns 0x00 (0000ms, 0516ms total)
T132C 001:210 JLINK_WriteReg(MSP, 0x20000800)  returns 0x00 (0000ms, 0516ms total)
T132C 001:210 JLINK_WriteReg(PSP, 0x20000800)  returns 0x00 (0000ms, 0516ms total)
T132C 001:210 JLINK_WriteReg(CFBP, 0x00000000)  returns 0x00 (0000ms, 0516ms total)
T132C 001:210 JLINK_SetBPEx(Addr = 0x20000000, Type = 0xFFFFFFF2)  returns 0x0000000C (0000ms, 0516ms total)
T132C 001:210 JLINK_Go() (0003ms, 0519ms total)
T132C 001:213 JLINK_IsHalted()  returns FALSE (0002ms, 0521ms total)
T132C 001:246 JLINK_IsHalted() -- CPU_ReadMem(2 bytes @ 0x20000000)  returns TRUE (0010ms, 0529ms total)
T132C 001:256 JLINK_ReadReg(R15)  returns 0x20000000 (0000ms, 0519ms total)
T132C 001:256 JLINK_ClrBPEx(BPHandle = 0x0000000C)  returns 0x00 (0000ms, 0519ms total)
T132C 001:256 JLINK_ReadReg(R0)  returns 0x00000000 (0000ms, 0519ms total)
T132C 001:256 JLINK_WriteMem(0x20000164, 0x0400 Bytes, ...) -- Data:  48 55 64 1C 6D 1C 18 48 40 68 A0 42 F5 DA 1E E0 ... -- CPU_WriteMem(1024 bytes @ 0x20000164)  returns 0x400 (0028ms, 0547ms total)
T132C 001:284 JLINK_WriteReg(R0, 0x08002000)  returns 0x00 (0000ms, 0547ms total)
T132C 001:284 JLINK_WriteReg(R1, 0x00000400)  returns 0x00 (0000ms, 0547ms total)
T132C 001:284 JLINK_WriteReg(R2, 0x20000164)  returns 0x00 (0000ms, 0547ms total)
T132C 001:284 JLINK_WriteReg(R3, 0x00000000)  returns 0x00 (0000ms, 0547ms total)
T132C 001:284 JLINK_WriteReg(R4, 0x00000000)  returns 0x00 (0000ms, 0547ms total)
T132C 001:284 JLINK_WriteReg(R5, 0x00000000)  returns 0x00 (0000ms, 0547ms total)
T132C 001:284 JLINK_WriteReg(R6, 0x00000000)  returns 0x00 (0000ms, 0547ms total)
T132C 001:284 JLINK_WriteReg(R7, 0x00000000)  returns 0x00 (0000ms, 0547ms total)
T132C 001:284 JLINK_WriteReg(R8, 0x00000000)  returns 0x00 (0000ms, 0547ms total)
T132C 001:284 JLINK_WriteReg(R9, 0x20000160)  returns 0x00 (0000ms, 0547ms total)
T132C 001:284 JLINK_WriteReg(R10, 0x00000000)  returns 0x00 (0000ms, 0547ms total)
T132C 001:284 JLINK_WriteReg(R11, 0x00000000)  returns 0x00 (0000ms, 0547ms total)
T132C 001:284 JLINK_WriteReg(R12, 0x00000000)  returns 0x00 (0000ms, 0547ms total)
T132C 001:284 JLINK_WriteReg(R13, 0x20000800)  returns 0x00 (0000ms, 0547ms total)
T132C 001:284 JLINK_WriteReg(R14, 0x20000001)  returns 0x00 (0000ms, 0547ms total)
T132C 001:284 JLINK_WriteReg(R15, 0x200000F4)  returns 0x00 (0000ms, 0547ms total)
T132C 001:284 JLINK_WriteReg(XPSR, 0x01000000)  returns 0x00 (0000ms, 0547ms total)
T132C 001:284 JLINK_WriteReg(MSP, 0x20000800)  returns 0x00 (0000ms, 0547ms total)
T132C 001:284 JLINK_WriteReg(PSP, 0x20000800)  returns 0x00 (0000ms, 0547ms total)
T132C 001:284 JLINK_WriteReg(CFBP, 0x00000000)  returns 0x00 (0000ms, 0547ms total)
T132C 001:284 JLINK_SetBPEx(Addr = 0x20000000, Type = 0xFFFFFFF2)  returns 0x0000000D (0000ms, 0547ms total)
T132C 001:284 JLINK_Go() (0004ms, 0551ms total)
T132C 001:288 JLINK_IsHalted()  returns FALSE (0002ms, 0553ms total)
T132C 001:342 JLINK_IsHalted() -- CPU_ReadMem(2 bytes @ 0x20000000)  returns TRUE (0009ms, 0560ms total)
T132C 001:351 JLINK_ReadReg(R15)  returns 0x20000000 (0000ms, 0551ms total)
T132C 001:351 JLINK_ClrBPEx(BPHandle = 0x0000000D)  returns 0x00 (0000ms, 0551ms total)
T132C 001:351 JLINK_ReadReg(R0)  returns 0x00000000 (0000ms, 0551ms total)
T132C 001:351 JLINK_WriteMem(0x20000164, 0x0400 Bytes, ...) -- Data:  F8 B6 D4 B5 E7 C1 BF 52 41 41 43 3A 25 64 20 6D ... -- CPU_WriteMem(1024 bytes @ 0x20000164)  returns 0x400 (0028ms, 0579ms total)
T132C 001:379 JLINK_WriteReg(R0, 0x08002400)  returns 0x00 (0000ms, 0579ms total)
T132C 001:379 JLINK_WriteReg(R1, 0x00000400)  returns 0x00 (0000ms, 0579ms total)
T132C 001:379 JLINK_WriteReg(R2, 0x20000164)  returns 0x00 (0000ms, 0579ms total)
T132C 001:379 JLINK_WriteReg(R3, 0x00000000)  returns 0x00 (0000ms, 0579ms total)
T132C 001:379 JLINK_WriteReg(R4, 0x00000000)  returns 0x00 (0000ms, 0579ms total)
T132C 001:379 JLINK_WriteReg(R5, 0x00000000)  returns 0x00 (0001ms, 0580ms total)
T132C 001:380 JLINK_WriteReg(R6, 0x00000000)  returns 0x00 (0000ms, 0580ms total)
T132C 001:380 JLINK_WriteReg(R7, 0x00000000)  returns 0x00 (0000ms, 0580ms total)
T132C 001:380 JLINK_WriteReg(R8, 0x00000000)  returns 0x00 (0000ms, 0580ms total)
T132C 001:380 JLINK_WriteReg(R9, 0x20000160)  returns 0x00 (0000ms, 0580ms total)
T132C 001:380 JLINK_WriteReg(R10, 0x00000000)  returns 0x00 (0000ms, 0580ms total)
T132C 001:380 JLINK_WriteReg(R11, 0x00000000)  returns 0x00 (0000ms, 0580ms total)
T132C 001:380 JLINK_WriteReg(R12, 0x00000000)  returns 0x00 (0000ms, 0580ms total)
T132C 001:380 JLINK_WriteReg(R13, 0x20000800)  returns 0x00 (0000ms, 0580ms total)
T132C 001:380 JLINK_WriteReg(R14, 0x20000001)  returns 0x00 (0000ms, 0580ms total)
T132C 001:380 JLINK_WriteReg(R15, 0x200000F4)  returns 0x00 (0000ms, 0580ms total)
T132C 001:380 JLINK_WriteReg(XPSR, 0x01000000)  returns 0x00 (0000ms, 0580ms total)
T132C 001:380 JLINK_WriteReg(MSP, 0x20000800)  returns 0x00 (0000ms, 0580ms total)
T132C 001:380 JLINK_WriteReg(PSP, 0x20000800)  returns 0x00 (0000ms, 0580ms total)
T132C 001:380 JLINK_WriteReg(CFBP, 0x00000000)  returns 0x00 (0000ms, 0580ms total)
T132C 001:380 JLINK_SetBPEx(Addr = 0x20000000, Type = 0xFFFFFFF2)  returns 0x0000000E (0000ms, 0580ms total)
T132C 001:380 JLINK_Go() (0005ms, 0585ms total)
T132C 001:385 JLINK_IsHalted()  returns FALSE (0001ms, 0586ms total)
T132C 001:438 JLINK_IsHalted() -- CPU_ReadMem(2 bytes @ 0x20000000)  returns TRUE (0009ms, 0594ms total)
T132C 001:447 JLINK_ReadReg(R15)  returns 0x20000000 (0000ms, 0585ms total)
T132C 001:447 JLINK_ClrBPEx(BPHandle = 0x0000000E)  returns 0x00 (0000ms, 0585ms total)
T132C 001:447 JLINK_ReadReg(R0)  returns 0x00000000 (0000ms, 0585ms total)
T132C 001:447 JLINK_WriteMem(0x20000164, 0x0400 Bytes, ...) -- Data:  01 90 48 45 01 D0 00 20 EA E7 48 1C 01 B2 91 42 ... -- CPU_WriteMem(1024 bytes @ 0x20000164)  returns 0x400 (0028ms, 0613ms total)
T132C 001:475 JLINK_WriteReg(R0, 0x08002800)  returns 0x00 (0000ms, 0613ms total)
T132C 001:475 JLINK_WriteReg(R1, 0x00000400)  returns 0x00 (0000ms, 0613ms total)
T132C 001:475 JLINK_WriteReg(R2, 0x20000164)  returns 0x00 (0000ms, 0613ms total)
T132C 001:475 JLINK_WriteReg(R3, 0x00000000)  returns 0x00 (0000ms, 0613ms total)
T132C 001:475 JLINK_WriteReg(R4, 0x00000000)  returns 0x00 (0000ms, 0613ms total)
T132C 001:475 JLINK_WriteReg(R5, 0x00000000)  returns 0x00 (0000ms, 0613ms total)
T132C 001:475 JLINK_WriteReg(R6, 0x00000000)  returns 0x00 (0000ms, 0613ms total)
T132C 001:475 JLINK_WriteReg(R7, 0x00000000)  returns 0x00 (0001ms, 0614ms total)
T132C 001:476 JLINK_WriteReg(R8, 0x00000000)  returns 0x00 (0000ms, 0614ms total)
T132C 001:476 JLINK_WriteReg(R9, 0x20000160)  returns 0x00 (0000ms, 0614ms total)
T132C 001:476 JLINK_WriteReg(R10, 0x00000000)  returns 0x00 (0000ms, 0614ms total)
T132C 001:476 JLINK_WriteReg(R11, 0x00000000)  returns 0x00 (0000ms, 0614ms total)
T132C 001:476 JLINK_WriteReg(R12, 0x00000000)  returns 0x00 (0000ms, 0614ms total)
T132C 001:476 JLINK_WriteReg(R13, 0x20000800)  returns 0x00 (0000ms, 0614ms total)
T132C 001:476 JLINK_WriteReg(R14, 0x20000001)  returns 0x00 (0000ms, 0614ms total)
T132C 001:476 JLINK_WriteReg(R15, 0x200000F4)  returns 0x00 (0000ms, 0614ms total)
T132C 001:476 JLINK_WriteReg(XPSR, 0x01000000)  returns 0x00 (0000ms, 0614ms total)
T132C 001:476 JLINK_WriteReg(MSP, 0x20000800)  returns 0x00 (0000ms, 0614ms total)
T132C 001:476 JLINK_WriteReg(PSP, 0x20000800)  returns 0x00 (0000ms, 0614ms total)
T132C 001:476 JLINK_WriteReg(CFBP, 0x00000000)  returns 0x00 (0000ms, 0614ms total)
T132C 001:476 JLINK_SetBPEx(Addr = 0x20000000, Type = 0xFFFFFFF2)  returns 0x0000000F (0000ms, 0614ms total)
T132C 001:476 JLINK_Go() (0004ms, 0618ms total)
T132C 001:480 JLINK_IsHalted()  returns FALSE (0001ms, 0619ms total)
T132C 001:547 JLINK_IsHalted() -- CPU_ReadMem(2 bytes @ 0x20000000)  returns TRUE (0010ms, 0628ms total)
T132C 001:557 JLINK_ReadReg(R15)  returns 0x20000000 (0000ms, 0618ms total)
T132C 001:557 JLINK_ClrBPEx(BPHandle = 0x0000000F)  returns 0x00 (0000ms, 0618ms total)
T132C 001:557 JLINK_ReadReg(R0)  returns 0x00000000 (0000ms, 0618ms total)
T132C 001:557 JLINK_WriteMem(0x20000164, 0x0400 Bytes, ...) -- Data:  41 54 5E 4D 4F 44 45 43 4F 4E 46 49 47 3D 31 39 ... -- CPU_WriteMem(1024 bytes @ 0x20000164)  returns 0x400 (0028ms, 0646ms total)
T132C 001:585 JLINK_WriteReg(R0, 0x08002C00)  returns 0x00 (0000ms, 0646ms total)
T132C 001:585 JLINK_WriteReg(R1, 0x00000400)  returns 0x00 (0000ms, 0646ms total)
T132C 001:585 JLINK_WriteReg(R2, 0x20000164)  returns 0x00 (0000ms, 0646ms total)
T132C 001:585 JLINK_WriteReg(R3, 0x00000000)  returns 0x00 (0000ms, 0646ms total)
T132C 001:585 JLINK_WriteReg(R4, 0x00000000)  returns 0x00 (0000ms, 0646ms total)
T132C 001:585 JLINK_WriteReg(R5, 0x00000000)  returns 0x00 (0000ms, 0646ms total)
T132C 001:585 JLINK_WriteReg(R6, 0x00000000)  returns 0x00 (0000ms, 0646ms total)
T132C 001:585 JLINK_WriteReg(R7, 0x00000000)  returns 0x00 (0000ms, 0646ms total)
T132C 001:585 JLINK_WriteReg(R8, 0x00000000)  returns 0x00 (0000ms, 0646ms total)
T132C 001:585 JLINK_WriteReg(R9, 0x20000160)  returns 0x00 (0000ms, 0646ms total)
T132C 001:585 JLINK_WriteReg(R10, 0x00000000)  returns 0x00 (0000ms, 0646ms total)
T132C 001:585 JLINK_WriteReg(R11, 0x00000000)  returns 0x00 (0001ms, 0647ms total)
T132C 001:586 JLINK_WriteReg(R12, 0x00000000)  returns 0x00 (0000ms, 0647ms total)
T132C 001:586 JLINK_WriteReg(R13, 0x20000800)  returns 0x00 (0000ms, 0647ms total)
T132C 001:586 JLINK_WriteReg(R14, 0x20000001)  returns 0x00 (0000ms, 0647ms total)
T132C 001:586 JLINK_WriteReg(R15, 0x200000F4)  returns 0x00 (0000ms, 0647ms total)
T132C 001:586 JLINK_WriteReg(XPSR, 0x01000000)  returns 0x00 (0000ms, 0647ms total)
T132C 001:586 JLINK_WriteReg(MSP, 0x20000800)  returns 0x00 (0000ms, 0647ms total)
T132C 001:586 JLINK_WriteReg(PSP, 0x20000800)  returns 0x00 (0000ms, 0647ms total)
T132C 001:586 JLINK_WriteReg(CFBP, 0x00000000)  returns 0x00 (0000ms, 0647ms total)
T132C 001:586 JLINK_SetBPEx(Addr = 0x20000000, Type = 0xFFFFFFF2)  returns 0x00000010 (0000ms, 0647ms total)
T132C 001:586 JLINK_Go() (0004ms, 0651ms total)
T132C 001:590 JLINK_IsHalted()  returns FALSE (0001ms, 0652ms total)
T132C 001:649 JLINK_IsHalted() -- CPU_ReadMem(2 bytes @ 0x20000000)  returns TRUE (0009ms, 0660ms total)
T132C 001:658 JLINK_ReadReg(R15)  returns 0x20000000 (0000ms, 0651ms total)
T132C 001:658 JLINK_ClrBPEx(BPHandle = 0x00000010)  returns 0x00 (0000ms, 0651ms total)
T132C 001:658 JLINK_ReadReg(R0)  returns 0x00000000 (0000ms, 0651ms total)
T132C 001:659 JLINK_WriteMem(0x20000164, 0x0400 Bytes, ...) -- Data:  A0 EB 02 01 90 42 78 D0 06 DC A0 F1 80 50 0A 38 ... -- CPU_WriteMem(1024 bytes @ 0x20000164)  returns 0x400 (0027ms, 0678ms total)
T132C 001:686 JLINK_WriteReg(R0, 0x08003000)  returns 0x00 (0000ms, 0678ms total)
T132C 001:686 JLINK_WriteReg(R1, 0x00000400)  returns 0x00 (0001ms, 0679ms total)
T132C 001:687 JLINK_WriteReg(R2, 0x20000164)  returns 0x00 (0000ms, 0679ms total)
T132C 001:687 JLINK_WriteReg(R3, 0x00000000)  returns 0x00 (0000ms, 0679ms total)
T132C 001:687 JLINK_WriteReg(R4, 0x00000000)  returns 0x00 (0000ms, 0679ms total)
T132C 001:687 JLINK_WriteReg(R5, 0x00000000)  returns 0x00 (0000ms, 0679ms total)
T132C 001:687 JLINK_WriteReg(R6, 0x00000000)  returns 0x00 (0000ms, 0679ms total)
T132C 001:687 JLINK_WriteReg(R7, 0x00000000)  returns 0x00 (0000ms, 0679ms total)
T132C 001:687 JLINK_WriteReg(R8, 0x00000000)  returns 0x00 (0000ms, 0679ms total)
T132C 001:687 JLINK_WriteReg(R9, 0x20000160)  returns 0x00 (0000ms, 0679ms total)
T132C 001:687 JLINK_WriteReg(R10, 0x00000000)  returns 0x00 (0000ms, 0679ms total)
T132C 001:687 JLINK_WriteReg(R11, 0x00000000)  returns 0x00 (0000ms, 0679ms total)
T132C 001:687 JLINK_WriteReg(R12, 0x00000000)  returns 0x00 (0000ms, 0679ms total)
T132C 001:687 JLINK_WriteReg(R13, 0x20000800)  returns 0x00 (0000ms, 0679ms total)
T132C 001:687 JLINK_WriteReg(R14, 0x20000001)  returns 0x00 (0000ms, 0679ms total)
T132C 001:687 JLINK_WriteReg(R15, 0x200000F4)  returns 0x00 (0000ms, 0679ms total)
T132C 001:687 JLINK_WriteReg(XPSR, 0x01000000)  returns 0x00 (0000ms, 0679ms total)
T132C 001:687 JLINK_WriteReg(MSP, 0x20000800)  returns 0x00 (0000ms, 0679ms total)
T132C 001:687 JLINK_WriteReg(PSP, 0x20000800)  returns 0x00 (0000ms, 0679ms total)
T132C 001:687 JLINK_WriteReg(CFBP, 0x00000000)  returns 0x00 (0000ms, 0679ms total)
T132C 001:687 JLINK_SetBPEx(Addr = 0x20000000, Type = 0xFFFFFFF2)  returns 0x00000011 (0001ms, 0680ms total)
T132C 001:688 JLINK_Go() (0004ms, 0684ms total)
T132C 001:692 JLINK_IsHalted()  returns FALSE (0001ms, 0685ms total)
T132C 001:759 JLINK_IsHalted() -- CPU_ReadMem(2 bytes @ 0x20000000)  returns TRUE (0009ms, 0693ms total)
T132C 001:768 JLINK_ReadReg(R15)  returns 0x20000000 (0000ms, 0684ms total)
T132C 001:768 JLINK_ClrBPEx(BPHandle = 0x00000011)  returns 0x00 (0000ms, 0684ms total)
T132C 001:768 JLINK_ReadReg(R0)  returns 0x00000000 (0000ms, 0684ms total)
T132C 001:768 JLINK_WriteMem(0x20000164, 0x0400 Bytes, ...) -- Data:  04 EB 44 00 00 EB 04 12 CC 48 00 EB 42 00 80 1D ... -- CPU_WriteMem(1024 bytes @ 0x20000164)  returns 0x400 (0028ms, 0712ms total)
T132C 001:796 JLINK_WriteReg(R0, 0x08003400)  returns 0x00 (0000ms, 0712ms total)
T132C 001:796 JLINK_WriteReg(R1, 0x00000400)  returns 0x00 (0000ms, 0712ms total)
T132C 001:796 JLINK_WriteReg(R2, 0x20000164)  returns 0x00 (0000ms, 0712ms total)
T132C 001:796 JLINK_WriteReg(R3, 0x00000000)  returns 0x00 (0000ms, 0712ms total)
T132C 001:796 JLINK_WriteReg(R4, 0x00000000)  returns 0x00 (0000ms, 0712ms total)
T132C 001:796 JLINK_WriteReg(R5, 0x00000000)  returns 0x00 (0000ms, 0712ms total)
T132C 001:796 JLINK_WriteReg(R6, 0x00000000)  returns 0x00 (0000ms, 0712ms total)
T132C 001:796 JLINK_WriteReg(R7, 0x00000000)  returns 0x00 (0001ms, 0713ms total)
T132C 001:797 JLINK_WriteReg(R8, 0x00000000)  returns 0x00 (0000ms, 0713ms total)
T132C 001:797 JLINK_WriteReg(R9, 0x20000160)  returns 0x00 (0000ms, 0713ms total)
T132C 001:797 JLINK_WriteReg(R10, 0x00000000)  returns 0x00 (0000ms, 0713ms total)
T132C 001:797 JLINK_WriteReg(R11, 0x00000000)  returns 0x00 (0000ms, 0713ms total)
T132C 001:797 JLINK_WriteReg(R12, 0x00000000)  returns 0x00 (0000ms, 0713ms total)
T132C 001:797 JLINK_WriteReg(R13, 0x20000800)  returns 0x00 (0000ms, 0713ms total)
T132C 001:797 JLINK_WriteReg(R14, 0x20000001)  returns 0x00 (0000ms, 0713ms total)
T132C 001:797 JLINK_WriteReg(R15, 0x200000F4)  returns 0x00 (0000ms, 0713ms total)
T132C 001:797 JLINK_WriteReg(XPSR, 0x01000000)  returns 0x00 (0000ms, 0713ms total)
T132C 001:797 JLINK_WriteReg(MSP, 0x20000800)  returns 0x00 (0000ms, 0713ms total)
T132C 001:797 JLINK_WriteReg(PSP, 0x20000800)  returns 0x00 (0000ms, 0713ms total)
T132C 001:797 JLINK_WriteReg(CFBP, 0x00000000)  returns 0x00 (0000ms, 0713ms total)
T132C 001:797 JLINK_SetBPEx(Addr = 0x20000000, Type = 0xFFFFFFF2)  returns 0x00000012 (0000ms, 0713ms total)
T132C 001:797 JLINK_Go() (0004ms, 0717ms total)
T132C 001:801 JLINK_IsHalted()  returns FALSE (0001ms, 0718ms total)
T132C 001:871 JLINK_IsHalted() -- CPU_ReadMem(2 bytes @ 0x20000000)  returns TRUE (0009ms, 0726ms total)
T132C 001:880 JLINK_ReadReg(R15)  returns 0x20000000 (0000ms, 0717ms total)
